T92B59440 000:002.240   SEGGER J-Link V8.12f Log File
T92B59440 000:002.335   DLL Compiled: Feb 12 2025 12:13:51
T92B59440 000:002.338   Logging started @ 2025-09-23 23:14
T92B59440 000:002.341   Process: /home/rishi/.eclipse/com.renesas.platform_2134061218/DebugComp/RA/e2-server-gdb
T92B59440 000:002.348 - 2.343ms 
T92B59440 000:002.352 JLINK_GetDLLVersion()
T92B59440 000:002.354 - 0.003ms returns 81206
T92B59440 000:003.645 JLINK_OpenEx(...)
T92B59440 000:010.604   Firmware: J-Link OB-RA4M2 compiled Apr  1 2025 10:13:55
T92B59440 000:011.083   Firmware: J-Link OB-RA4M2 compiled Apr  1 2025 10:13:55
T92B59440 000:022.389   Hardware: V1.00
T92B59440 000:022.401   S/N: 1089032868
T92B59440 000:022.408   OEM: SEGGER
T92B59440 000:022.414   Feature(s): None
T92B59440 000:022.784   Bootloader: 2021 May 14
T92B59440 000:023.118   USB speed mode: Full speed (12 MBit/s)
T92B59440 000:023.425   TELNET listener socket opened on port 19021
T92B59440 000:023.538   WEBSRV WEBSRV_Init(): Starting webserver thread(s)
T92B59440 000:023.644   WEBSRV Webserver running on local port 19080
T92B59440 000:023.663   Looking for J-Link GUI Server exe at: ARM/Segger_v8.12.6/JLinkGUIServerExe
T92B59440 000:023.672   Looking for J-Link GUI Server exe at: /opt/SEGGER/JLink/JLinkGUIServerExe
T92B59440 000:324.301   Failed to connect to J-Link GUI Server.
T92B59440 000:324.321 - 320.675ms returns "O.K."
T92B59440 000:324.339 JLINK_TIF_Select(JLINKARM_TIF_SWD)
T92B59440 000:324.741 - 0.403ms returns 0x00
T92B59440 000:324.750 JLINK_ClrRESET()
T92B59440 000:324.969 - 0.219ms 
T92B59440 000:375.050 JLINK_SetSpeed(1500)
T92B59440 000:375.122 - 0.073ms 
T92B59440 000:375.127 JLINK_CORESIGHT_Configure(PerformTIFInit=0)
T92B59440 000:375.445 - 0.319ms returns 0
T92B59440 000:375.451 JLINK_CORESIGHT_ReadAPDPReg(DP reg 0x00)
T92B59440 000:375.807   Value=0x6BA02477
T92B59440 000:375.814 - 0.363ms returns 0
T92B59440 000:375.819 JLINK_CORESIGHT_WriteAPDPReg(DP reg 0x00, 0x0000001F)
T92B59440 000:375.983 - 0.164ms returns 0
T92B59440 000:375.987 JLINK_CORESIGHT_ReadAPDPReg(DP reg 0x00)
T92B59440 000:376.137   Value=0x6BA02477
T92B59440 000:376.141 - 0.154ms returns 0
T92B59440 000:376.145 JLINK_CORESIGHT_WriteAPDPReg(DP reg 0x02, 0x00000000)
T92B59440 000:376.297 - 0.152ms returns 0
T92B59440 000:376.302 JLINK_CORESIGHT_WriteAPDPReg(DP reg 0x01, 0x50000000)
T92B59440 000:376.454 - 0.153ms returns 0
T92B59440 000:376.482 JLINK_CORESIGHT_ReadAPDPReg(DP reg 0x01)
T92B59440 000:376.638   Value=0xF0000040
T92B59440 000:376.642 - 0.161ms returns 0
T92B59440 000:376.646 JLINK_CORESIGHT_WriteAPDPReg(DP reg 0x00, 0x0000001F)
T92B59440 000:376.800 - 0.154ms returns 0
T92B59440 000:376.803 JLINK_CORESIGHT_ReadAPDPReg(DP reg 0x00)
T92B59440 000:376.959   Value=0x6BA02477
T92B59440 000:376.964 - 0.161ms returns 0
T92B59440 000:376.967 JLINK_CORESIGHT_WriteAPDPReg(DP reg 0x01, 0x54000000)
T92B59440 000:377.122 - 0.155ms returns 0
T92B59440 000:377.125 JLINK_CORESIGHT_WriteAPDPReg(DP reg 0x01, 0x50000F00)
T92B59440 000:377.282 - 0.157ms returns 0
T92B59440 000:377.285 JLINK_CORESIGHT_WriteAPDPReg(DP reg 0x02, 0x01000000)
T92B59440 000:377.434 - 0.149ms returns 0
T92B59440 000:377.437 JLINK_CORESIGHT_WriteAPDPReg(AP reg 0x00, 0x80000002)
T92B59440 000:377.586 - 0.149ms returns 0
T92B59440 000:377.590 JLINK_CORESIGHT_WriteAPDPReg(AP reg 0x01, 0x80011100)
T92B59440 000:377.743 - 0.154ms returns 0
T92B59440 000:377.747 JLINK_CORESIGHT_WriteAPDPReg(AP reg 0x03, 0x000000A5)
T92B59440 000:377.951 - 0.204ms returns 0
T92B59440 000:377.954 JLINK_CORESIGHT_WriteAPDPReg(AP reg 0x00, 0x80000002)
T92B59440 000:378.117 - 0.163ms returns 0
T92B59440 000:378.122 JLINK_CORESIGHT_WriteAPDPReg(AP reg 0x01, 0x80011100)
T92B59440 000:378.280 - 0.159ms returns 0
T92B59440 000:378.285 JLINK_CORESIGHT_ReadAPDPReg(AP reg 0x03)
T92B59440 000:378.490   Value=0x000000A5
T92B59440 000:378.494 - 0.209ms returns 0
T92B59440 000:378.498 JLINK_ClrTMS()
T92B59440 000:378.526 - 0.028ms 
T92B59440 000:383.593 JLINK_SetTCK()
T92B59440 000:383.668 - 0.075ms returns 0
T92B59440 000:388.767 JLINK_SetRESET()
T92B59440 000:388.831 - 0.064ms 
T92B59440 000:588.902 JLINK_CORESIGHT_WriteAPDPReg(AP reg 0x00, 0x80000002)
T92B59440 000:589.143 - 0.243ms returns 0
T92B59440 000:589.148 JLINK_CORESIGHT_WriteAPDPReg(AP reg 0x01, 0x80011100)
T92B59440 000:589.320 - 0.173ms returns 0
T92B59440 000:589.325 JLINK_CORESIGHT_ReadAPDPReg(AP reg 0x03)
T92B59440 000:589.543   Value=0x00000000
T92B59440 000:589.547 - 0.222ms returns 0
T92B59440 000:589.553 JLINK_CORESIGHT_WriteAPDPReg(AP reg 0x00, 0x80000002)
T92B59440 000:589.719 - 0.166ms returns 0
T92B59440 000:589.722 JLINK_CORESIGHT_WriteAPDPReg(AP reg 0x01, 0x80011140)
T92B59440 000:589.956 - 0.234ms returns 0
T92B59440 000:589.961 JLINK_CORESIGHT_ReadAPDPReg(AP reg 0x03)
T92B59440 000:590.180   Value=0x00000002
T92B59440 000:590.184 - 0.223ms returns 0
T92B59440 000:590.188 JLINK_CORESIGHT_WriteAPDPReg(AP reg 0x00, 0x80000002)
T92B59440 000:590.350 - 0.162ms returns 0
T92B59440 000:590.353 JLINK_CORESIGHT_WriteAPDPReg(AP reg 0x01, 0x80011120)
T92B59440 000:590.507 - 0.154ms returns 0
T92B59440 000:590.510 JLINK_CORESIGHT_WriteAPDPReg(AP reg 0x03, 0x00000055)
T92B59440 000:590.664 - 0.154ms returns 0
T92B59440 000:590.668 JLINK_CORESIGHT_WriteAPDPReg(AP reg 0x00, 0x80000002)
T92B59440 000:590.823 - 0.155ms returns 0
T92B59440 000:590.826 JLINK_CORESIGHT_WriteAPDPReg(AP reg 0x01, 0x80011140)
T92B59440 000:590.981 - 0.155ms returns 0
T92B59440 000:590.986 JLINK_CORESIGHT_ReadAPDPReg(AP reg 0x03)
T92B59440 000:591.197   Value=0x00000000
T92B59440 000:591.205 - 0.219ms returns 0
T92B59440 000:591.209 JLINK_CORESIGHT_WriteAPDPReg(AP reg 0x00, 0x80000002)
T92B59440 000:591.383 - 0.173ms returns 0
T92B59440 000:591.389 JLINK_CORESIGHT_WriteAPDPReg(AP reg 0x01, 0x80011130)
T92B59440 000:591.561 - 0.172ms returns 0
T92B59440 000:591.567 JLINK_CORESIGHT_ReadAPDPReg(AP reg 0x03)
T92B59440 000:591.787   Value=0x000000C6
T92B59440 000:591.795 - 0.227ms returns 0
T92B59440 000:591.805 JLINK_CORESIGHT_WriteAPDPReg(AP reg 0x00, 0x80000002)
T92B59440 000:591.974 - 0.169ms returns 0
T92B59440 000:591.978 JLINK_CORESIGHT_WriteAPDPReg(AP reg 0x01, 0x80011140)
T92B59440 000:592.134 - 0.156ms returns 0
T92B59440 000:592.137 JLINK_CORESIGHT_ReadAPDPReg(AP reg 0x03)
T92B59440 000:592.340   Value=0x00000002
T92B59440 000:592.344 - 0.207ms returns 0
T92B59440 000:592.347 JLINK_CORESIGHT_WriteAPDPReg(AP reg 0x00, 0x80000002)
T92B59440 000:592.501 - 0.154ms returns 0
T92B59440 000:592.504 JLINK_CORESIGHT_WriteAPDPReg(AP reg 0x01, 0x80011120)
T92B59440 000:592.657 - 0.153ms returns 0
T92B59440 000:592.660 JLINK_CORESIGHT_WriteAPDPReg(AP reg 0x03, 0x3A010001)
T92B59440 000:592.820 - 0.160ms returns 0
T92B59440 000:592.824 JLINK_CORESIGHT_WriteAPDPReg(AP reg 0x00, 0x80000002)
T92B59440 000:592.986 - 0.162ms returns 0
T92B59440 000:592.990 JLINK_CORESIGHT_WriteAPDPReg(AP reg 0x01, 0x80011140)
T92B59440 000:593.152 - 0.163ms returns 0
T92B59440 000:593.156 JLINK_CORESIGHT_ReadAPDPReg(AP reg 0x03)
T92B59440 000:593.367   Value=0x00000002
T92B59440 000:593.371 - 0.215ms returns 0
T92B59440 000:593.374 JLINK_CORESIGHT_WriteAPDPReg(AP reg 0x00, 0x80000002)
T92B59440 000:593.533 - 0.159ms returns 0
T92B59440 000:593.537 JLINK_CORESIGHT_WriteAPDPReg(AP reg 0x01, 0x80011120)
T92B59440 000:593.700 - 0.163ms returns 0
T92B59440 000:593.703 JLINK_CORESIGHT_WriteAPDPReg(AP reg 0x03, 0x000003C5)
T92B59440 000:593.861 - 0.158ms returns 0
T92B59440 000:593.864 JLINK_CORESIGHT_WriteAPDPReg(AP reg 0x00, 0x80000002)
T92B59440 000:594.119 - 0.254ms returns 0
T92B59440 000:594.125 JLINK_CORESIGHT_WriteAPDPReg(AP reg 0x01, 0x80011140)
T92B59440 000:594.371 - 0.246ms returns 0
T92B59440 000:594.377 JLINK_CORESIGHT_ReadAPDPReg(AP reg 0x03)
T92B59440 000:594.673   Value=0x00000002
T92B59440 000:594.684 - 0.306ms returns 0
T92B59440 000:594.690 JLINK_CORESIGHT_ReadAPDPReg(AP reg 0x03)
T92B59440 000:594.961   Value=0x00000002
T92B59440 000:594.969 - 0.279ms returns 0
T92B59440 000:594.975 JLINK_CORESIGHT_ReadAPDPReg(AP reg 0x03)
T92B59440 000:595.206   Value=0x00000002
T92B59440 000:595.211 - 0.236ms returns 0
T92B59440 000:595.214 JLINK_CORESIGHT_ReadAPDPReg(AP reg 0x03)
T92B59440 000:595.400   Value=0x00000002
T92B59440 000:595.404 - 0.190ms returns 0
T92B59440 000:595.407 JLINK_CORESIGHT_ReadAPDPReg(AP reg 0x03)
T92B59440 000:595.603   Value=0x00000002
T92B59440 000:595.607 - 0.200ms returns 0
T92B59440 000:595.610 JLINK_CORESIGHT_ReadAPDPReg(AP reg 0x03)
T92B59440 000:595.802   Value=0x00000002
T92B59440 000:595.806 - 0.196ms returns 0
T92B59440 000:595.811 JLINK_CORESIGHT_ReadAPDPReg(AP reg 0x03)
T92B59440 000:595.997   Value=0x00000002
T92B59440 000:596.001 - 0.190ms returns 0
T92B59440 000:596.004 JLINK_CORESIGHT_ReadAPDPReg(AP reg 0x03)
T92B59440 000:596.189   Value=0x00000002
T92B59440 000:596.193 - 0.189ms returns 0
T92B59440 000:596.196 JLINK_CORESIGHT_ReadAPDPReg(AP reg 0x03)
T92B59440 000:596.385   Value=0x00000002
T92B59440 000:596.391 - 0.195ms returns 0
T92B59440 000:596.395 JLINK_CORESIGHT_ReadAPDPReg(AP reg 0x03)
T92B59440 000:596.603   Value=0x00000002
T92B59440 000:596.607 - 0.212ms returns 0
T92B59440 000:596.610 JLINK_CORESIGHT_ReadAPDPReg(AP reg 0x03)
T92B59440 000:596.811   Value=0x00000002
T92B59440 000:596.816 - 0.206ms returns 0
T92B59440 000:596.819 JLINK_CORESIGHT_ReadAPDPReg(AP reg 0x03)
T92B59440 000:597.027   Value=0x00000002
T92B59440 000:597.031 - 0.212ms returns 0
T92B59440 000:597.034 JLINK_CORESIGHT_ReadAPDPReg(AP reg 0x03)
T92B59440 000:597.232   Value=0x00000000
T92B59440 000:597.236 - 0.202ms returns 0
T92B59440 000:597.239 JLINK_CORESIGHT_WriteAPDPReg(AP reg 0x00, 0x80000002)
T92B59440 000:597.400 - 0.161ms returns 0
T92B59440 000:597.403 JLINK_CORESIGHT_WriteAPDPReg(AP reg 0x01, 0x80011130)
T92B59440 000:597.563 - 0.160ms returns 0
T92B59440 000:597.566 JLINK_CORESIGHT_ReadAPDPReg(AP reg 0x03)
T92B59440 000:597.768   Value=0x3A2A0081
T92B59440 000:597.772 - 0.205ms returns 0
T92B59440 000:597.774 JLINK_CORESIGHT_WriteAPDPReg(AP reg 0x00, 0x80000002)
T92B59440 000:597.952 - 0.178ms returns 0
T92B59440 000:597.956 JLINK_CORESIGHT_WriteAPDPReg(AP reg 0x01, 0x80011140)
T92B59440 000:598.109 - 0.154ms returns 0
T92B59440 000:598.112 JLINK_CORESIGHT_ReadAPDPReg(AP reg 0x03)
T92B59440 000:598.310   Value=0x00000000
T92B59440 000:598.314 - 0.202ms returns 0
T92B59440 000:598.317 JLINK_CORESIGHT_WriteAPDPReg(AP reg 0x00, 0x80000002)
T92B59440 000:598.471 - 0.154ms returns 0
T92B59440 000:598.474 JLINK_CORESIGHT_WriteAPDPReg(AP reg 0x01, 0x80011130)
T92B59440 000:598.622 - 0.148ms returns 0
T92B59440 000:598.625 JLINK_CORESIGHT_ReadAPDPReg(AP reg 0x03)
T92B59440 000:598.833   Value=0x808D5B00
T92B59440 000:598.842 - 0.216ms returns 0
T92B59440 000:598.848 JLINK_CORESIGHT_WriteAPDPReg(AP reg 0x00, 0x80000002)
T92B59440 000:599.075 - 0.226ms returns 0
T92B59440 000:599.081 JLINK_CORESIGHT_WriteAPDPReg(AP reg 0x01, 0x80011140)
T92B59440 000:599.252 - 0.172ms returns 0
T92B59440 000:599.258 JLINK_CORESIGHT_ReadAPDPReg(AP reg 0x03)
T92B59440 000:599.479   Value=0x00000000
T92B59440 000:599.487 - 0.229ms returns 0
T92B59440 000:599.493 JLINK_CORESIGHT_WriteAPDPReg(AP reg 0x00, 0x80000002)
T92B59440 000:599.661 - 0.169ms returns 0
T92B59440 000:599.667 JLINK_CORESIGHT_WriteAPDPReg(AP reg 0x01, 0x80011130)
T92B59440 000:599.847 - 0.180ms returns 0
T92B59440 000:599.853 JLINK_CORESIGHT_ReadAPDPReg(AP reg 0x03)
T92B59440 000:600.114   Value=0x0603030B
T92B59440 000:600.118 - 0.265ms returns 0
T92B59440 000:600.121 JLINK_CORESIGHT_WriteAPDPReg(AP reg 0x00, 0x80000002)
T92B59440 000:600.297 - 0.176ms returns 0
T92B59440 000:600.300 JLINK_CORESIGHT_WriteAPDPReg(AP reg 0x01, 0x80011140)
T92B59440 000:600.498 - 0.198ms returns 0
T92B59440 000:600.501 JLINK_CORESIGHT_ReadAPDPReg(AP reg 0x03)
T92B59440 000:600.749   Value=0x00000000
T92B59440 000:600.755 - 0.254ms returns 0
T92B59440 000:600.760 JLINK_CORESIGHT_WriteAPDPReg(AP reg 0x00, 0x80000002)
T92B59440 000:600.960 - 0.201ms returns 0
T92B59440 000:600.963 JLINK_CORESIGHT_WriteAPDPReg(AP reg 0x01, 0x80011130)
T92B59440 000:601.134 - 0.171ms returns 0
T92B59440 000:601.137 JLINK_CORESIGHT_ReadAPDPReg(AP reg 0x03)
T92B59440 000:601.354   Value=0x2E4B4E20
T92B59440 000:601.358 - 0.221ms returns 0
T92B59440 000:601.361 JLINK_CORESIGHT_WriteAPDPReg(AP reg 0x00, 0x80000002)
T92B59440 000:601.516 - 0.155ms returns 0
T92B59440 000:601.519 JLINK_CORESIGHT_WriteAPDPReg(AP reg 0x01, 0x80011140)
T92B59440 000:601.685 - 0.166ms returns 0
T92B59440 000:601.688 JLINK_CORESIGHT_ReadAPDPReg(AP reg 0x03)
T92B59440 000:601.954   Value=0x00000000
T92B59440 000:601.959 - 0.271ms returns 0
T92B59440 000:601.963 JLINK_CORESIGHT_WriteAPDPReg(AP reg 0x00, 0x80000002)
T92B59440 000:602.119 - 0.156ms returns 0
T92B59440 000:602.122 JLINK_CORESIGHT_WriteAPDPReg(AP reg 0x01, 0x80011130)
T92B59440 000:602.270 - 0.149ms returns 0
T92B59440 000:602.274 JLINK_CORESIGHT_ReadAPDPReg(AP reg 0x03)
T92B59440 000:602.479   Value=0x4ECBC192
T92B59440 000:602.483 - 0.209ms returns 0
T92B59440 000:602.487 JLINK_CORESIGHT_WriteAPDPReg(AP reg 0x00, 0x80000002)
T92B59440 000:602.648 - 0.161ms returns 0
T92B59440 000:602.652 JLINK_CORESIGHT_WriteAPDPReg(AP reg 0x01, 0x80011140)
T92B59440 000:602.816 - 0.165ms returns 0
T92B59440 000:602.820 JLINK_CORESIGHT_ReadAPDPReg(AP reg 0x03)
T92B59440 000:603.031   Value=0x00000000
T92B59440 000:603.035 - 0.215ms returns 0
T92B59440 000:603.039 JLINK_CORESIGHT_WriteAPDPReg(AP reg 0x00, 0x80000002)
T92B59440 000:603.202 - 0.163ms returns 0
T92B59440 000:603.206 JLINK_CORESIGHT_WriteAPDPReg(AP reg 0x01, 0x80011130)
T92B59440 000:603.374 - 0.168ms returns 0
T92B59440 000:603.379 JLINK_CORESIGHT_ReadAPDPReg(AP reg 0x03)
T92B59440 000:603.594   Value=0x34503036
T92B59440 000:603.599 - 0.220ms returns 0
T92B59440 000:603.604 JLINK_CORESIGHT_WriteAPDPReg(AP reg 0x00, 0x80000002)
T92B59440 000:603.770 - 0.166ms returns 0
T92B59440 000:603.774 JLINK_CORESIGHT_WriteAPDPReg(AP reg 0x01, 0x80011140)
T92B59440 000:603.955 - 0.181ms returns 0
T92B59440 000:603.960 JLINK_CORESIGHT_ReadAPDPReg(AP reg 0x03)
T92B59440 000:604.174   Value=0x00000000
T92B59440 000:604.179 - 0.219ms returns 0
T92B59440 000:604.184 JLINK_CORESIGHT_WriteAPDPReg(AP reg 0x00, 0x80000002)
T92B59440 000:604.350 - 0.167ms returns 0
T92B59440 000:604.354 JLINK_CORESIGHT_WriteAPDPReg(AP reg 0x01, 0x80011130)
T92B59440 000:604.518 - 0.164ms returns 0
T92B59440 000:604.522 JLINK_CORESIGHT_ReadAPDPReg(AP reg 0x03)
T92B59440 000:604.734   Value=0x59142D36
T92B59440 000:604.738 - 0.216ms returns 0
T92B59440 000:604.742 JLINK_CORESIGHT_WriteAPDPReg(AP reg 0x00, 0x80000002)
T92B59440 000:604.961 - 0.219ms returns 0
T92B59440 000:604.965 JLINK_CORESIGHT_WriteAPDPReg(AP reg 0x01, 0x80011140)
T92B59440 000:605.122 - 0.157ms returns 0
T92B59440 000:605.126 JLINK_CORESIGHT_ReadAPDPReg(AP reg 0x03)
T92B59440 000:605.331   Value=0x00000000
T92B59440 000:605.335 - 0.209ms returns 0
T92B59440 000:605.339 JLINK_CORESIGHT_WriteAPDPReg(AP reg 0x00, 0x80000002)
T92B59440 000:605.496 - 0.157ms returns 0
T92B59440 000:605.500 JLINK_CORESIGHT_WriteAPDPReg(AP reg 0x01, 0x80011130)
T92B59440 000:605.656 - 0.156ms returns 0
T92B59440 000:605.660 JLINK_CORESIGHT_ReadAPDPReg(AP reg 0x03)
T92B59440 000:605.860   Value=0x46375281
T92B59440 000:605.864 - 0.204ms returns 0
T92B59440 000:605.868 JLINK_CORESIGHT_WriteAPDPReg(AP reg 0x00, 0x80000002)
T92B59440 000:606.068 - 0.200ms returns 0
T92B59440 000:606.075 JLINK_CORESIGHT_WriteAPDPReg(AP reg 0x01, 0x80011140)
T92B59440 000:606.241 - 0.166ms returns 0
T92B59440 000:606.249 JLINK_CORESIGHT_ReadAPDPReg(AP reg 0x03)
T92B59440 000:606.463   Value=0x00000000
T92B59440 000:606.470 - 0.222ms returns 0
T92B59440 000:606.477 JLINK_CORESIGHT_WriteAPDPReg(AP reg 0x00, 0x80000002)
T92B59440 000:606.651 - 0.174ms returns 0
T92B59440 000:606.658 JLINK_CORESIGHT_WriteAPDPReg(AP reg 0x01, 0x80011130)
T92B59440 000:606.826 - 0.168ms returns 0
T92B59440 000:606.833 JLINK_CORESIGHT_ReadAPDPReg(AP reg 0x03)
T92B59440 000:607.048   Value=0x31443841
T92B59440 000:607.055 - 0.222ms returns 0
T92B59440 000:607.074 JLINK_CORESIGHT_WriteAPDPReg(AP reg 0x00, 0x80000002)
T92B59440 000:607.244 - 0.171ms returns 0
T92B59440 000:607.252 JLINK_CORESIGHT_WriteAPDPReg(AP reg 0x01, 0x80011140)
T92B59440 000:607.525 - 0.274ms returns 0
T92B59440 000:607.530 JLINK_CORESIGHT_ReadAPDPReg(AP reg 0x03)
T92B59440 000:607.730   Value=0x00000000
T92B59440 000:607.734 - 0.205ms returns 0
T92B59440 000:607.738 JLINK_CORESIGHT_WriteAPDPReg(AP reg 0x00, 0x80000002)
T92B59440 000:607.954 - 0.215ms returns 0
T92B59440 000:607.958 JLINK_CORESIGHT_WriteAPDPReg(AP reg 0x01, 0x80011130)
T92B59440 000:608.120 - 0.162ms returns 0
T92B59440 000:608.124 JLINK_CORESIGHT_ReadAPDPReg(AP reg 0x03)
T92B59440 000:608.327   Value=0x43454842
T92B59440 000:608.331 - 0.207ms returns 0
T92B59440 000:608.335 JLINK_CORESIGHT_WriteAPDPReg(AP reg 0x00, 0x80000002)
T92B59440 000:608.494 - 0.158ms returns 0
T92B59440 000:608.498 JLINK_CORESIGHT_WriteAPDPReg(AP reg 0x01, 0x80011140)
T92B59440 000:608.655 - 0.157ms returns 0
T92B59440 000:608.659 JLINK_CORESIGHT_ReadAPDPReg(AP reg 0x03)
T92B59440 000:608.865   Value=0x00000000
T92B59440 000:608.870 - 0.211ms returns 0
T92B59440 000:608.874 JLINK_CORESIGHT_WriteAPDPReg(AP reg 0x00, 0x80000002)
T92B59440 000:609.059 - 0.185ms returns 0
T92B59440 000:609.063 JLINK_CORESIGHT_WriteAPDPReg(AP reg 0x01, 0x80011130)
T92B59440 000:609.213 - 0.150ms returns 0
T92B59440 000:609.217 JLINK_CORESIGHT_ReadAPDPReg(AP reg 0x03)
T92B59440 000:609.420   Value=0x20204442
T92B59440 000:609.424 - 0.207ms returns 0
T92B59440 000:609.428 JLINK_CORESIGHT_WriteAPDPReg(AP reg 0x00, 0x80000002)
T92B59440 000:609.584 - 0.156ms returns 0
T92B59440 000:609.588 JLINK_CORESIGHT_WriteAPDPReg(AP reg 0x01, 0x80011140)
T92B59440 000:609.738 - 0.150ms returns 0
T92B59440 000:609.742 JLINK_CORESIGHT_ReadAPDPReg(AP reg 0x03)
T92B59440 000:609.952   Value=0x00000000
T92B59440 000:609.957 - 0.215ms returns 0
T92B59440 000:609.961 JLINK_CORESIGHT_WriteAPDPReg(AP reg 0x00, 0x80000002)
T92B59440 000:610.116 - 0.155ms returns 0
T92B59440 000:610.120 JLINK_CORESIGHT_WriteAPDPReg(AP reg 0x01, 0x80011130)
T92B59440 000:610.269 - 0.149ms returns 0
T92B59440 000:610.273 JLINK_CORESIGHT_ReadAPDPReg(AP reg 0x03)
T92B59440 000:610.474   Value=0x0003DA20
T92B59440 000:610.480 - 0.207ms returns 0
T92B59440 000:610.551 JLINK_CORESIGHT_WriteAPDPReg(AP reg 0x00, 0x80000002)
T92B59440 000:610.726 - 0.175ms returns 0
T92B59440 000:610.733 JLINK_CORESIGHT_WriteAPDPReg(AP reg 0x01, 0x80011140)
T92B59440 000:610.969 - 0.236ms returns 0
T92B59440 000:610.976 JLINK_CORESIGHT_ReadAPDPReg(AP reg 0x03)
T92B59440 000:611.193   Value=0x00000002
T92B59440 000:611.197 - 0.221ms returns 0
T92B59440 000:611.200 JLINK_CORESIGHT_WriteAPDPReg(AP reg 0x00, 0x80000002)
T92B59440 000:611.362 - 0.161ms returns 0
T92B59440 000:611.365 JLINK_CORESIGHT_WriteAPDPReg(AP reg 0x01, 0x80011120)
T92B59440 000:611.526 - 0.162ms returns 0
T92B59440 000:611.530 JLINK_CORESIGHT_WriteAPDPReg(AP reg 0x03, 0x2C010001)
T92B59440 000:611.691 - 0.161ms returns 0
T92B59440 000:611.694 JLINK_CORESIGHT_WriteAPDPReg(AP reg 0x00, 0x80000002)
T92B59440 000:611.851 - 0.157ms returns 0
T92B59440 000:611.854 JLINK_CORESIGHT_WriteAPDPReg(AP reg 0x01, 0x80011140)
T92B59440 000:612.063 - 0.209ms returns 0
T92B59440 000:612.066 JLINK_CORESIGHT_ReadAPDPReg(AP reg 0x03)
T92B59440 000:612.268   Value=0x00000002
T92B59440 000:612.272 - 0.206ms returns 0
T92B59440 000:612.275 JLINK_CORESIGHT_WriteAPDPReg(AP reg 0x00, 0x80000002)
T92B59440 000:612.428 - 0.153ms returns 0
T92B59440 000:612.431 JLINK_CORESIGHT_WriteAPDPReg(AP reg 0x01, 0x80011120)
T92B59440 000:612.584 - 0.154ms returns 0
T92B59440 000:612.587 JLINK_CORESIGHT_WriteAPDPReg(AP reg 0x03, 0x000003D3)
T92B59440 000:612.739 - 0.153ms returns 0
T92B59440 000:612.742 JLINK_CORESIGHT_WriteAPDPReg(AP reg 0x00, 0x80000002)
T92B59440 000:612.959 - 0.217ms returns 0
T92B59440 000:612.963 JLINK_CORESIGHT_WriteAPDPReg(AP reg 0x01, 0x80011140)
T92B59440 000:613.117 - 0.155ms returns 0
T92B59440 000:613.120 JLINK_CORESIGHT_ReadAPDPReg(AP reg 0x03)
T92B59440 000:613.392   Value=0x00000002
T92B59440 000:613.400 - 0.280ms returns 0
T92B59440 000:613.406 JLINK_CORESIGHT_ReadAPDPReg(AP reg 0x03)
T92B59440 000:613.697   Value=0x00000002
T92B59440 000:613.705 - 0.299ms returns 0
T92B59440 000:613.710 JLINK_CORESIGHT_ReadAPDPReg(AP reg 0x03)
T92B59440 000:614.003   Value=0x00000000
T92B59440 000:614.012 - 0.301ms returns 0
T92B59440 000:614.018 JLINK_CORESIGHT_WriteAPDPReg(AP reg 0x00, 0x80000002)
T92B59440 000:614.186 - 0.169ms returns 0
T92B59440 000:614.192 JLINK_CORESIGHT_WriteAPDPReg(AP reg 0x01, 0x80011130)
T92B59440 000:614.349 - 0.157ms returns 0
T92B59440 000:614.352 JLINK_CORESIGHT_ReadAPDPReg(AP reg 0x03)
T92B59440 000:614.553   Value=0x2C020081
T92B59440 000:614.557 - 0.205ms returns 0
T92B59440 000:614.560 JLINK_CORESIGHT_WriteAPDPReg(AP reg 0x00, 0x80000002)
T92B59440 000:614.708 - 0.148ms returns 0
T92B59440 000:614.711 JLINK_CORESIGHT_WriteAPDPReg(AP reg 0x01, 0x80011140)
T92B59440 000:614.855 - 0.144ms returns 0
T92B59440 000:614.858 JLINK_CORESIGHT_ReadAPDPReg(AP reg 0x03)
T92B59440 000:615.117   Value=0x00000000
T92B59440 000:615.121 - 0.263ms returns 0
T92B59440 000:615.124 JLINK_CORESIGHT_WriteAPDPReg(AP reg 0x00, 0x80000002)
T92B59440 000:615.279 - 0.155ms returns 0
T92B59440 000:615.283 JLINK_CORESIGHT_WriteAPDPReg(AP reg 0x01, 0x80011130)
T92B59440 000:615.435 - 0.152ms returns 0
T92B59440 000:615.438 JLINK_CORESIGHT_ReadAPDPReg(AP reg 0x03)
T92B59440 000:615.640   Value=0x0003CE04
T92B59440 000:615.644 - 0.205ms returns 0
T92B59440 000:615.650 JLINK_CORESIGHT_WriteAPDPReg(AP reg 0x00, 0x80000002)
T92B59440 000:615.810 - 0.161ms returns 0
T92B59440 000:615.813 JLINK_CORESIGHT_WriteAPDPReg(AP reg 0x01, 0x80011140)
T92B59440 000:615.979 - 0.166ms returns 0
T92B59440 000:615.982 JLINK_CORESIGHT_ReadAPDPReg(AP reg 0x03)
T92B59440 000:616.187   Value=0x00000002
T92B59440 000:616.191 - 0.208ms returns 0
T92B59440 000:616.194 JLINK_CORESIGHT_WriteAPDPReg(AP reg 0x00, 0x80000002)
T92B59440 000:616.350 - 0.157ms returns 0
T92B59440 000:616.353 JLINK_CORESIGHT_WriteAPDPReg(AP reg 0x01, 0x80011120)
T92B59440 000:616.509 - 0.155ms returns 0
T92B59440 000:616.512 JLINK_CORESIGHT_WriteAPDPReg(AP reg 0x03, 0x73010001)
T92B59440 000:616.681 - 0.170ms returns 0
T92B59440 000:616.684 JLINK_CORESIGHT_WriteAPDPReg(AP reg 0x00, 0x80000002)
T92B59440 000:616.832 - 0.148ms returns 0
T92B59440 000:616.836 JLINK_CORESIGHT_WriteAPDPReg(AP reg 0x01, 0x80011140)
T92B59440 000:616.987 - 0.151ms returns 0
T92B59440 000:616.990 JLINK_CORESIGHT_ReadAPDPReg(AP reg 0x03)
T92B59440 000:617.193   Value=0x00000002
T92B59440 000:617.197 - 0.207ms returns 0
T92B59440 000:617.200 JLINK_CORESIGHT_WriteAPDPReg(AP reg 0x00, 0x80000002)
T92B59440 000:617.352 - 0.152ms returns 0
T92B59440 000:617.355 JLINK_CORESIGHT_WriteAPDPReg(AP reg 0x01, 0x80011120)
T92B59440 000:617.508 - 0.153ms returns 0
T92B59440 000:617.513 JLINK_CORESIGHT_WriteAPDPReg(AP reg 0x03, 0x0000038C)
T92B59440 000:617.686 - 0.174ms returns 0
T92B59440 000:617.691 JLINK_CORESIGHT_WriteAPDPReg(AP reg 0x00, 0x80000002)
T92B59440 000:617.844 - 0.154ms returns 0
T92B59440 000:617.847 JLINK_CORESIGHT_WriteAPDPReg(AP reg 0x01, 0x80011140)
T92B59440 000:617.993 - 0.146ms returns 0
T92B59440 000:617.997 JLINK_CORESIGHT_ReadAPDPReg(AP reg 0x03)
T92B59440 000:618.197   Value=0x00000002
T92B59440 000:618.201 - 0.204ms returns 0
T92B59440 000:618.204 JLINK_CORESIGHT_ReadAPDPReg(AP reg 0x03)
T92B59440 000:618.388   Value=0x00000002
T92B59440 000:618.392 - 0.188ms returns 0
T92B59440 000:618.395 JLINK_CORESIGHT_ReadAPDPReg(AP reg 0x03)
T92B59440 000:618.590   Value=0x00000002
T92B59440 000:618.594 - 0.199ms returns 0
T92B59440 000:618.597 JLINK_CORESIGHT_ReadAPDPReg(AP reg 0x03)
T92B59440 000:618.785   Value=0x00000002
T92B59440 000:618.789 - 0.192ms returns 0
T92B59440 000:618.792 JLINK_CORESIGHT_ReadAPDPReg(AP reg 0x03)
T92B59440 000:618.982   Value=0x00000002
T92B59440 000:618.986 - 0.194ms returns 0
T92B59440 000:618.989 JLINK_CORESIGHT_ReadAPDPReg(AP reg 0x03)
T92B59440 000:619.190   Value=0x00000002
T92B59440 000:619.197 - 0.208ms returns 0
T92B59440 000:619.202 JLINK_CORESIGHT_ReadAPDPReg(AP reg 0x03)
T92B59440 000:619.405   Value=0x00000002
T92B59440 000:619.412 - 0.210ms returns 0
T92B59440 000:619.417 JLINK_CORESIGHT_ReadAPDPReg(AP reg 0x03)
T92B59440 000:619.625   Value=0x00000002
T92B59440 000:619.632 - 0.215ms returns 0
T92B59440 000:619.637 JLINK_CORESIGHT_ReadAPDPReg(AP reg 0x03)
T92B59440 000:619.841   Value=0x00000002
T92B59440 000:619.848 - 0.211ms returns 0
T92B59440 000:619.853 JLINK_CORESIGHT_ReadAPDPReg(AP reg 0x03)
T92B59440 000:620.104   Value=0x00000002
T92B59440 000:620.111 - 0.258ms returns 0
T92B59440 000:620.116 JLINK_CORESIGHT_ReadAPDPReg(AP reg 0x03)
T92B59440 000:620.319   Value=0x00000002
T92B59440 000:620.326 - 0.210ms returns 0
T92B59440 000:620.331 JLINK_CORESIGHT_ReadAPDPReg(AP reg 0x03)
T92B59440 000:620.535   Value=0x00000000
T92B59440 000:620.542 - 0.211ms returns 0
T92B59440 000:620.547 JLINK_CORESIGHT_WriteAPDPReg(AP reg 0x00, 0x80000002)
T92B59440 000:620.768 - 0.221ms returns 0
T92B59440 000:620.774 JLINK_CORESIGHT_WriteAPDPReg(AP reg 0x01, 0x80011130)
T92B59440 000:621.007 - 0.233ms returns 0
T92B59440 000:621.013 JLINK_CORESIGHT_ReadAPDPReg(AP reg 0x03)
T92B59440 000:621.261   Value=0x73020081
T92B59440 000:621.268 - 0.255ms returns 0
T92B59440 000:621.274 JLINK_CORESIGHT_WriteAPDPReg(AP reg 0x00, 0x80000002)
T92B59440 000:621.440 - 0.166ms returns 0
T92B59440 000:621.446 JLINK_CORESIGHT_WriteAPDPReg(AP reg 0x01, 0x80011140)
T92B59440 000:621.610 - 0.164ms returns 0
T92B59440 000:621.614 JLINK_CORESIGHT_ReadAPDPReg(AP reg 0x03)
T92B59440 000:621.819   Value=0x00000000
T92B59440 000:621.824 - 0.210ms returns 0
T92B59440 000:621.827 JLINK_CORESIGHT_WriteAPDPReg(AP reg 0x00, 0x80000002)
T92B59440 000:621.976 - 0.149ms returns 0
T92B59440 000:621.979 JLINK_CORESIGHT_WriteAPDPReg(AP reg 0x01, 0x80011130)
T92B59440 000:622.125 - 0.146ms returns 0
T92B59440 000:622.129 JLINK_CORESIGHT_ReadAPDPReg(AP reg 0x03)
T92B59440 000:622.329   Value=0x00038902
T92B59440 000:622.333 - 0.204ms returns 0
T92B59440 000:622.336 JLINK_CORESIGHT_WriteAPDPReg(AP reg 0x00, 0x80000002)
T92B59440 000:622.483 - 0.147ms returns 0
T92B59440 000:622.486 JLINK_CORESIGHT_WriteAPDPReg(AP reg 0x01, 0x80011140)
T92B59440 000:622.633 - 0.147ms returns 0
T92B59440 000:622.636 JLINK_CORESIGHT_ReadAPDPReg(AP reg 0x03)
T92B59440 000:622.842   Value=0x00000002
T92B59440 000:622.846 - 0.210ms returns 0
T92B59440 000:622.849 JLINK_CORESIGHT_WriteAPDPReg(AP reg 0x00, 0x80000002)
T92B59440 000:623.067 - 0.218ms returns 0
T92B59440 000:623.070 JLINK_CORESIGHT_WriteAPDPReg(AP reg 0x01, 0x80011120)
T92B59440 000:623.230 - 0.160ms returns 0
T92B59440 000:623.233 JLINK_CORESIGHT_WriteAPDPReg(AP reg 0x03, 0x75010001)
T92B59440 000:623.395 - 0.162ms returns 0
T92B59440 000:623.399 JLINK_CORESIGHT_WriteAPDPReg(AP reg 0x00, 0x80000002)
T92B59440 000:623.559 - 0.160ms returns 0
T92B59440 000:623.563 JLINK_CORESIGHT_WriteAPDPReg(AP reg 0x01, 0x80011140)
T92B59440 000:623.724 - 0.161ms returns 0
T92B59440 000:623.727 JLINK_CORESIGHT_ReadAPDPReg(AP reg 0x03)
T92B59440 000:624.036   Value=0x00000002
T92B59440 000:624.041 - 0.314ms returns 0
T92B59440 000:624.044 JLINK_CORESIGHT_WriteAPDPReg(AP reg 0x00, 0x80000002)
T92B59440 000:624.208 - 0.164ms returns 0
T92B59440 000:624.214 JLINK_CORESIGHT_WriteAPDPReg(AP reg 0x01, 0x80011120)
T92B59440 000:624.376 - 0.162ms returns 0
T92B59440 000:624.381 JLINK_CORESIGHT_WriteAPDPReg(AP reg 0x03, 0x0000038A)
T92B59440 000:624.536 - 0.155ms returns 0
T92B59440 000:624.542 JLINK_CORESIGHT_WriteAPDPReg(AP reg 0x00, 0x80000002)
T92B59440 000:624.701 - 0.159ms returns 0
T92B59440 000:624.706 JLINK_CORESIGHT_WriteAPDPReg(AP reg 0x01, 0x80011140)
T92B59440 000:624.860 - 0.155ms returns 0
T92B59440 000:624.867 JLINK_CORESIGHT_ReadAPDPReg(AP reg 0x03)
T92B59440 000:625.127   Value=0x00000002
T92B59440 000:625.135 - 0.268ms returns 0
T92B59440 000:625.140 JLINK_CORESIGHT_ReadAPDPReg(AP reg 0x03)
T92B59440 000:625.356   Value=0x00000002
T92B59440 000:625.364 - 0.225ms returns 0
T92B59440 000:625.369 JLINK_CORESIGHT_ReadAPDPReg(AP reg 0x03)
T92B59440 000:625.570   Value=0x00000002
T92B59440 000:625.575 - 0.206ms returns 0
T92B59440 000:625.578 JLINK_CORESIGHT_ReadAPDPReg(AP reg 0x03)
T92B59440 000:625.769   Value=0x00000002
T92B59440 000:625.773 - 0.195ms returns 0
T92B59440 000:625.776 JLINK_CORESIGHT_ReadAPDPReg(AP reg 0x03)
T92B59440 000:625.970   Value=0x00000002
T92B59440 000:625.974 - 0.198ms returns 0
T92B59440 000:625.977 JLINK_CORESIGHT_ReadAPDPReg(AP reg 0x03)
T92B59440 000:626.166   Value=0x00000002
T92B59440 000:626.170 - 0.193ms returns 0
T92B59440 000:626.172 JLINK_CORESIGHT_ReadAPDPReg(AP reg 0x03)
T92B59440 000:626.361   Value=0x00000002
T92B59440 000:626.365 - 0.193ms returns 0
T92B59440 000:626.368 JLINK_CORESIGHT_ReadAPDPReg(AP reg 0x03)
T92B59440 000:626.556   Value=0x00000002
T92B59440 000:626.559 - 0.191ms returns 0
T92B59440 000:626.562 JLINK_CORESIGHT_ReadAPDPReg(AP reg 0x03)
T92B59440 000:626.751   Value=0x00000000
T92B59440 000:626.755 - 0.193ms returns 0
T92B59440 000:626.758 JLINK_CORESIGHT_WriteAPDPReg(AP reg 0x00, 0x80000002)
T92B59440 000:626.958 - 0.201ms returns 0
T92B59440 000:626.961 JLINK_CORESIGHT_WriteAPDPReg(AP reg 0x01, 0x80011130)
T92B59440 000:627.113 - 0.152ms returns 0
T92B59440 000:627.116 JLINK_CORESIGHT_ReadAPDPReg(AP reg 0x03)
T92B59440 000:627.316   Value=0x75020081
T92B59440 000:627.320 - 0.204ms returns 0
T92B59440 000:627.323 JLINK_CORESIGHT_WriteAPDPReg(AP reg 0x00, 0x80000002)
T92B59440 000:627.475 - 0.152ms returns 0
T92B59440 000:627.478 JLINK_CORESIGHT_WriteAPDPReg(AP reg 0x01, 0x80011140)
T92B59440 000:627.636 - 0.158ms returns 0
T92B59440 000:627.643 JLINK_CORESIGHT_ReadAPDPReg(AP reg 0x03)
T92B59440 000:627.859   Value=0x00000000
T92B59440 000:627.866 - 0.223ms returns 0
T92B59440 000:627.871 JLINK_CORESIGHT_WriteAPDPReg(AP reg 0x00, 0x80000002)
T92B59440 000:628.058 - 0.187ms returns 0
T92B59440 000:628.063 JLINK_CORESIGHT_WriteAPDPReg(AP reg 0x01, 0x80011130)
T92B59440 000:628.229 - 0.166ms returns 0
T92B59440 000:628.235 JLINK_CORESIGHT_ReadAPDPReg(AP reg 0x03)
T92B59440 000:628.450   Value=0x00038702
T92B59440 000:628.457 - 0.222ms returns 0
T92B59440 000:628.470 JLINK_CORESIGHT_WriteAPDPReg(AP reg 0x00, 0x80000002)
T92B59440 000:628.636 - 0.166ms returns 0
T92B59440 000:628.642 JLINK_CORESIGHT_WriteAPDPReg(AP reg 0x01, 0x80011140)
T92B59440 000:628.805 - 0.164ms returns 0
T92B59440 000:628.816 JLINK_CORESIGHT_ReadAPDPReg(AP reg 0x03)
T92B59440 000:629.032   Value=0x00000002
T92B59440 000:629.036 - 0.221ms returns 0
T92B59440 000:629.039 JLINK_CORESIGHT_WriteAPDPReg(AP reg 0x00, 0x80000002)
T92B59440 000:629.192 - 0.153ms returns 0
T92B59440 000:629.196 JLINK_CORESIGHT_WriteAPDPReg(AP reg 0x01, 0x80011120)
T92B59440 000:629.349 - 0.152ms returns 0
T92B59440 000:629.352 JLINK_CORESIGHT_WriteAPDPReg(AP reg 0x03, 0x4F010001)
T92B59440 000:629.498 - 0.147ms returns 0
T92B59440 000:629.501 JLINK_CORESIGHT_WriteAPDPReg(AP reg 0x00, 0x80000002)
T92B59440 000:629.648 - 0.147ms returns 0
T92B59440 000:629.651 JLINK_CORESIGHT_WriteAPDPReg(AP reg 0x01, 0x80011140)
T92B59440 000:629.804 - 0.152ms returns 0
T92B59440 000:629.808 JLINK_CORESIGHT_ReadAPDPReg(AP reg 0x03)
T92B59440 000:630.007   Value=0x00000002
T92B59440 000:630.011 - 0.204ms returns 0
T92B59440 000:630.014 JLINK_CORESIGHT_WriteAPDPReg(AP reg 0x00, 0x80000002)
T92B59440 000:630.164 - 0.150ms returns 0
T92B59440 000:630.167 JLINK_CORESIGHT_WriteAPDPReg(AP reg 0x01, 0x80011120)
T92B59440 000:630.319 - 0.151ms returns 0
T92B59440 000:630.322 JLINK_CORESIGHT_WriteAPDPReg(AP reg 0x03, 0x000003B0)
T92B59440 000:630.475 - 0.153ms returns 0
T92B59440 000:630.478 JLINK_CORESIGHT_WriteAPDPReg(AP reg 0x00, 0x80000002)
T92B59440 000:630.624 - 0.146ms returns 0
T92B59440 000:630.628 JLINK_CORESIGHT_WriteAPDPReg(AP reg 0x01, 0x80011140)
T92B59440 000:630.775 - 0.148ms returns 0
T92B59440 000:630.779 JLINK_CORESIGHT_ReadAPDPReg(AP reg 0x03)
T92B59440 000:630.991   Value=0x00000002
T92B59440 000:630.995 - 0.217ms returns 0
T92B59440 000:630.998 JLINK_CORESIGHT_ReadAPDPReg(AP reg 0x03)
T92B59440 000:631.191   Value=0x00000002
T92B59440 000:631.196 - 0.197ms returns 0
T92B59440 000:631.199 JLINK_CORESIGHT_ReadAPDPReg(AP reg 0x03)
T92B59440 000:631.391   Value=0x00000002
T92B59440 000:631.395 - 0.196ms returns 0
T92B59440 000:631.398 JLINK_CORESIGHT_ReadAPDPReg(AP reg 0x03)
T92B59440 000:631.604   Value=0x00000002
T92B59440 000:631.618 - 0.220ms returns 0
T92B59440 000:631.626 JLINK_CORESIGHT_ReadAPDPReg(AP reg 0x03)
T92B59440 000:631.833   Value=0x00000002
T92B59440 000:631.843 - 0.216ms returns 0
T92B59440 000:631.849 JLINK_CORESIGHT_ReadAPDPReg(AP reg 0x03)
T92B59440 000:632.108   Value=0x00000002
T92B59440 000:632.118 - 0.269ms returns 0
T92B59440 000:632.124 JLINK_CORESIGHT_ReadAPDPReg(AP reg 0x03)
T92B59440 000:632.345   Value=0x00000002
T92B59440 000:632.353 - 0.229ms returns 0
T92B59440 000:632.359 JLINK_CORESIGHT_ReadAPDPReg(AP reg 0x03)
T92B59440 000:632.607   Value=0x00000002
T92B59440 000:632.611 - 0.252ms returns 0
T92B59440 000:632.614 JLINK_CORESIGHT_ReadAPDPReg(AP reg 0x03)
T92B59440 000:632.920   Value=0x00000002
T92B59440 000:632.925 - 0.310ms returns 0
T92B59440 000:632.927 JLINK_CORESIGHT_ReadAPDPReg(AP reg 0x03)
T92B59440 000:633.198   Value=0x00000002
T92B59440 000:633.202 - 0.275ms returns 0
T92B59440 000:633.205 JLINK_CORESIGHT_ReadAPDPReg(AP reg 0x03)
T92B59440 000:633.393   Value=0x00000002
T92B59440 000:633.397 - 0.192ms returns 0
T92B59440 000:633.400 JLINK_CORESIGHT_ReadAPDPReg(AP reg 0x03)
T92B59440 000:633.594   Value=0x00000002
T92B59440 000:633.598 - 0.198ms returns 0
T92B59440 000:633.601 JLINK_CORESIGHT_ReadAPDPReg(AP reg 0x03)
T92B59440 000:633.789   Value=0x00000002
T92B59440 000:633.793 - 0.192ms returns 0
T92B59440 000:633.795 JLINK_CORESIGHT_ReadAPDPReg(AP reg 0x03)
T92B59440 000:633.988   Value=0x00000002
T92B59440 000:633.992 - 0.197ms returns 0
T92B59440 000:633.995 JLINK_CORESIGHT_ReadAPDPReg(AP reg 0x03)
T92B59440 000:634.184   Value=0x00000000
T92B59440 000:634.188 - 0.193ms returns 0
T92B59440 000:634.191 JLINK_CORESIGHT_WriteAPDPReg(AP reg 0x00, 0x80000002)
T92B59440 000:634.343 - 0.152ms returns 0
T92B59440 000:634.346 JLINK_CORESIGHT_WriteAPDPReg(AP reg 0x01, 0x80011130)
T92B59440 000:634.497 - 0.151ms returns 0
T92B59440 000:634.500 JLINK_CORESIGHT_ReadAPDPReg(AP reg 0x03)
T92B59440 000:634.711   Value=0x4F0B0081
T92B59440 000:634.726 - 0.226ms returns 0
T92B59440 000:634.729 JLINK_CORESIGHT_WriteAPDPReg(AP reg 0x00, 0x80000002)
T92B59440 000:634.965 - 0.236ms returns 0
T92B59440 000:634.971 JLINK_CORESIGHT_WriteAPDPReg(AP reg 0x01, 0x80011140)
T92B59440 000:635.139 - 0.168ms returns 0
T92B59440 000:635.145 JLINK_CORESIGHT_ReadAPDPReg(AP reg 0x03)
T92B59440 000:635.363   Value=0x00000000
T92B59440 000:635.370 - 0.225ms returns 0
T92B59440 000:635.376 JLINK_CORESIGHT_WriteAPDPReg(AP reg 0x00, 0x80000002)
T92B59440 000:635.540 - 0.164ms returns 0
T92B59440 000:635.545 JLINK_CORESIGHT_WriteAPDPReg(AP reg 0x01, 0x80011130)
T92B59440 000:635.711 - 0.165ms returns 0
T92B59440 000:635.717 JLINK_CORESIGHT_ReadAPDPReg(AP reg 0x03)
T92B59440 000:635.957   Value=0x40000000
T92B59440 000:635.965 - 0.248ms returns 0
T92B59440 000:635.972 JLINK_CORESIGHT_WriteAPDPReg(AP reg 0x00, 0x80000002)
T92B59440 000:636.140 - 0.167ms returns 0
T92B59440 000:636.147 JLINK_CORESIGHT_WriteAPDPReg(AP reg 0x01, 0x80011140)
T92B59440 000:636.307 - 0.161ms returns 0
T92B59440 000:636.311 JLINK_CORESIGHT_ReadAPDPReg(AP reg 0x03)
T92B59440 000:636.513   Value=0x00000000
T92B59440 000:636.517 - 0.206ms returns 0
T92B59440 000:636.521 JLINK_CORESIGHT_WriteAPDPReg(AP reg 0x00, 0x80000002)
T92B59440 000:636.680 - 0.159ms returns 0
T92B59440 000:636.683 JLINK_CORESIGHT_WriteAPDPReg(AP reg 0x01, 0x80011130)
T92B59440 000:636.831 - 0.148ms returns 0
T92B59440 000:636.835 JLINK_CORESIGHT_ReadAPDPReg(AP reg 0x03)
T92B59440 000:637.037   Value=0x00000000
T92B59440 000:637.053 - 0.218ms returns 0
T92B59440 000:637.057 JLINK_CORESIGHT_WriteAPDPReg(AP reg 0x00, 0x80000002)
T92B59440 000:637.210 - 0.153ms returns 0
T92B59440 000:637.214 JLINK_CORESIGHT_WriteAPDPReg(AP reg 0x01, 0x80011140)
T92B59440 000:637.365 - 0.151ms returns 0
T92B59440 000:637.369 JLINK_CORESIGHT_ReadAPDPReg(AP reg 0x03)
T92B59440 000:637.565   Value=0x00000000
T92B59440 000:637.569 - 0.200ms returns 0
T92B59440 000:637.572 JLINK_CORESIGHT_WriteAPDPReg(AP reg 0x00, 0x80000002)
T92B59440 000:637.723 - 0.151ms returns 0
T92B59440 000:637.727 JLINK_CORESIGHT_WriteAPDPReg(AP reg 0x01, 0x80011130)
T92B59440 000:637.952 - 0.224ms returns 0
T92B59440 000:637.956 JLINK_CORESIGHT_ReadAPDPReg(AP reg 0x03)
T92B59440 000:638.156   Value=0x03660000
T92B59440 000:638.160 - 0.204ms returns 0
T92B59440 000:638.225 JLINK_CORESIGHT_ReadAPDPReg(DP reg 0x01)
T92B59440 000:638.395   Value=0xF0000F40
T92B59440 000:638.402 - 0.177ms returns 0
T92B59440 000:638.407 JLINK_CORESIGHT_WriteAPDPReg(DP reg 0x01, 0xA0000F40)
T92B59440 000:638.574 - 0.166ms returns 0
T92B59440 000:638.579 JLINK_CORESIGHT_ReadAPDPReg(DP reg 0x01)
T92B59440 000:638.745   Value=0x00000F40
T92B59440 000:638.752 - 0.173ms returns 0
T92B59440 000:638.758 JLINK_ClrRESET()
T92B59440 000:639.041 - 0.284ms 
T92B59440 000:749.250 JLINK_Close()
T92B59440 000:756.184 - 6.935ms
T92B59440 000:756.196   
T92B59440 000:756.199   Closed
